   ---   47   cards of disk file read into card cache cells  1   onward.
 <===> Done with  "/"-card sorting by data class.    Remember that the source file appears different from interpreted input data.
Alternative Transients Program (ATP),  GNU Linux or DOS.  All rights reserved by Can/Am user group of Portland, Oregon, USA.
 Date (dd-mth-yy) and time of day (hh.mm.ss) = 24-Nov-16  09:59:13   Name of disk plot file is  c:\atp\atpdraw\atp\cir1.pl4
Consult the 860-page ATP Rule Book of the Can/Am EMTP User Group in Portland,  Oregon, USA.  Source code date is 31 July 2006.
Total size of LABCOM tables = 10913313 INTEGER words.  31 VARDIM  List Sizes follow:  6002  10K  192K  900  420K  1200  15K
  120K  2250  3800  720  2K  72800  510  90K  800  90  254  120K  100K  3K  15K  192K  120  45K  260K  600  210K  600  19  200
--------------------------------------------------+--------------------------------------------------------------------------------
Descriptive interpretation of input data cards.   |  Input data card images are shown below, all 80 columns, character by character
                                                  0         1         2         3         4         5         6         7         8
                                                  012345678901234567890123456789012345678901234567890123456789012345678901234567890
--------------------------------------------------+--------------------------------------------------------------------------------
Comment card.   NUMDCD = 1.                       |C data:C:\ATP\ATPDRAW\ATP\CIR1.ATP
Marker card preceding new EMTP data case.         |BEGIN NEW DATA CASE
Comment card.   NUMDCD = 3.                       |C --------------------------------------------------------
Comment card.   NUMDCD = 4.                       |C Generated by ATPDRAW  noviembre, jueves 24, 2016
Comment card.   NUMDCD = 5.                       |C A Bonneville Power Administration program
Comment card.   NUMDCD = 6.                       |C by H. K. Høidalen at SEfAS/NTNU - NORWAY 1994-2015
Comment card.   NUMDCD = 7.                       |C --------------------------------------------------------
Comment card.   NUMDCD = 8.                       |C  dT  >< Tmax >< Xopt >< Copt ><Epsiln>
Misc. data.     8.000E-05   4.000E+00   0.000E+00 |   8.E-5      4.
Misc. data.      1    1  1  1  1  0  0  1  0  0   |       1       1       1       1       1       0       0       1       0
Electric network, too.  But TACS data first ...   |TACS HYBRID
TACS source.    1.000E+00   0.000E+00   0.000E+00 |11XX0002          1.                                                1.      1.05
TACS source.    1.000E+00   0.000E+00   0.000E+00 |11XX0003          1.                                                1.      1.05
TACS source.    1.000E+00   0.000E+00   0.000E+00 |11XX0004          1.                                                1.      1.05
Comment card.   NUMDCD = 15.                      |C        1         2         3         4         5         6         7         8
Comment card.   NUMDCD = 16.                      |C 345678901234567890123456789012345678901234567890123456789012345678901234567890
Blank card terminating all TACS data cards.       |BLANK TACS
Comment card.   NUMDCD = 18.                      |C < n1 >< n2 ><ref1><ref2>< R  >< L  >< C  >
Comment card.   NUMDCD = 19.                      |C < n1 >< n2 ><ref1><ref2>< R  >< A  >< B  ><Leng><><>0
Series R-L-C.   2.000E+01  0.000E+00  0.000E+00   |  F1A   F2A                  20.                                               0
Series R-L-C.   2.000E+01  0.000E+00  0.000E+00   |  F1B   F2B                  20.                                               0
Series R-L-C.   2.000E+01  0.000E+00  0.000E+00   |  F1C   F2C                  20.                                               0
Series R-L-C.   2.000E+01  0.000E+00  0.000E+00   |  F2A   X0001A               20.                                               0
Series R-L-C.   2.000E+01  0.000E+00  0.000E+00   |  F2B   X0001B               20.                                               0
Series R-L-C.   2.000E+01  0.000E+00  0.000E+00   |  F2C   X0001C               20.                                               0
Series R-L-C.   2.000E+01  0.000E+00  0.000E+00   |  X0001A                     20.                                               0
Series R-L-C.   2.000E+01  0.000E+00  0.000E+00   |  X0001B                     20.                                               0
Series R-L-C.   2.000E+01  0.000E+00  0.000E+00   |  X0001C                     20.                                               0
Blank card ending branches.  IBR, NTOT = 9  10    |BLANK BRANCH
Comment card.   NUMDCD = 30.                      |C < n 1>< n 2>< Tclose ><Top/Tde ><   Ie   ><Vf/CLOP ><  type  >
Switch.  TACS control = "XX0002"                  |13F2A   X0001A                                        CLOSED          XX0002   0
Switch.  TACS control = "XX0003"                  |13F2B   X0001B                                        CLOSED          XX0003   0
Switch.  TACS control = "XX0004"                  |13F2C   X0001C                                        CLOSED          XX0004   0
Blank card ending switches.   KSWTCH = 3.         |BLANK SWITCH
Comment card.   NUMDCD = 35.                      |C < n 1><>< Ampl.  >< Freq.  ><Phase/T0><   A1   ><   T1   >< TSTART >< TSTOP  >
Source.   1.70E+02  6.00E+01  0.00E+00 -1.00E+00  |14F1A     169.705627       60.                                     -1.      100.
Source.   1.70E+02  6.00E+01 -1.20E+02 -1.00E+00  |14F1B     169.705627       60.     -120.                           -1.      100.
Source.   1.70E+02  6.00E+01 -2.40E+02 -1.00E+00  |14F1C     169.705627       60.     -240.                           -1.      100.
Blank card ends electric sources.  KCONST = 3     |BLANK SOURCE

List of input elements that are connected to each node.   Only the physical connections of multi-phase lines are shown (capacitive
and inductive coupling are ignored).   Repeated entries indicate parallel connections.   Switches are included,  although sources
(including rotating machinery) are omitted -- except that U.M. usage produces extra,  internally-defined nodes  "UMXXXX".
--------------+------------------------------
From bus name |  Names of all adjacent busses.
--------------+------------------------------
       F1A    |F2A   *
       F2A    |F1A   *X0001A*X0001A*
       F1B    |F2B   *
       F2B    |F1B   *X0001B*X0001B*
       F1C    |F2C   *
       F2C    |F1C   *X0001C*X0001C*
       X0001A |TERRA *F2A   *F2A   *
       X0001B |TERRA *F2B   *F2B   *
       X0001C |TERRA *F2C   *F2C   *
       TERRA  |X0001A*X0001B*X0001C*
--------------+------------------------------

Sinusoidal steady-state phasor solution, branch by branch.   All flows are away from a bus,  and the real part,  magnitude,  or  "P"
is printed above the imaginary part,  the angle,  or  "Q".   The first solution frequency  =  6.00000000E+01  Hertz.
  Bus K                        Phasor  node  voltage              Phasor  branch  current               Power flow       Power loss
             Bus M         Rectangular            Polar          Rectangular            Polar            P  and  Q        P  and  Q

 F1A                       169.705627       169.705627          4.242640675      4.242640675      359.99999794329  179.99999897164
                                  0.0              0.0                  0.0              0.0                  0.0              0.0

            F2A            84.8528135       84.8528135         -4.242640675      4.242640675      -179.9999989716
                                  0.0              0.0                  0.0     -180.0000000                  0.0

 F1B                      -84.8528135       169.705627        -2.1213203375      4.242640675      359.99999794329  179.99999897164
                      -146.9693841472     -120.0000000      -3.674234603679     -120.0000000      .5245803791E-14        0.0000000

            F2B          -42.42640675       84.8528135         2.1213203375      4.242640675      -179.9999989716
                      -73.48469207358     -120.0000000      3.6742346036792       60.0000000       -.60368377E-15

 F1C                      -84.8528135       169.705627        -2.1213203375      4.242640675      359.99999794329  179.99999897164
                      146.96938414717      120.0000000      3.6742346036792      120.0000000      .2775557562E-15        0.0000000

            F2C          -42.42640675       84.8528135         2.1213203375      4.242640675      -179.9999989716
                      73.484692073583      120.0000000      -3.674234603679      -60.0000000      -.215105711E-14

 F2A                       84.8528135       84.8528135                  0.0              0.0                  0.0              0.0
                                  0.0              0.0                  0.0              0.0                  0.0              0.0

            X0001A         84.8528135       84.8528135                  0.0              0.0                  0.0
                                  0.0              0.0                  0.0              0.0                  0.0

 F2B                     -42.42640675       84.8528135                  0.0              0.0                  0.0              0.0
                      -73.48469207358     -120.0000000                  0.0              0.0                  0.0              0.0

            X0001B       -42.42640675       84.8528135                  0.0              0.0                  0.0
                      -73.48469207358     -120.0000000                  0.0              0.0                  0.0

 F2C                     -42.42640675       84.8528135                  0.0              0.0                  0.0              0.0
                      73.484692073583      120.0000000                  0.0              0.0                  0.0              0.0

            X0001C       -42.42640675       84.8528135                  0.0              0.0                  0.0
                      73.484692073583      120.0000000                  0.0              0.0                  0.0

 X0001A                    84.8528135       84.8528135          4.242640675      4.242640675      179.99999897164  179.99999897164
                                  0.0              0.0                  0.0              0.0                  0.0              0.0

            TERRA                 0.0              0.0         -4.242640675      4.242640675                  0.0
                                  0.0              0.0                  0.0     -180.0000000                  0.0

 X0001B                  -42.42640675       84.8528135        -2.1213203375      4.242640675      179.99999897164  179.99999897164
                      -73.48469207358     -120.0000000      -3.674234603679     -120.0000000      -.376781939E-14        0.0000000

            TERRA                 0.0              0.0         2.1213203375      4.242640675                  0.0
                                  0.0              0.0      3.6742346036792       60.0000000                  0.0

 X0001C                  -42.42640675       84.8528135        -2.1213203375      4.242640675      179.99999897164  179.99999897164
                      73.484692073583      120.0000000      3.6742346036792      120.0000000       .652256027E-14        0.0000000

            TERRA                 0.0              0.0         2.1213203375      4.242640675                  0.0
                                  0.0              0.0      -3.674234603679      -60.0000000                  0.0
     Total network loss  P-loss  by summing injections =   1.079999993830E+03

Output for steady-state phasor switch currents.
      Node-K    Node-M            I-real            I-imag            I-magn          Degrees        Power            Reactive
      F2A       X0001A        4.24264068E+00    0.00000000E+00    4.24264068E+00       0.0000    1.79999999E+02    0.00000000E+00
      F2B       X0001B       -2.12132034E+00   -3.67423460E+00    4.24264068E+00    -120.0000    1.79999999E+02    6.03683770E-16
      F2C       X0001C       -2.12132034E+00    3.67423460E+00    4.24264068E+00     120.0000    1.79999999E+02    1.15740750E-14

Solution at nodes with known voltage.   Nodes that are shorted together by switches are shown as a group of names, with the printed
result applying to the composite group.   The entry "MVA" is  SQRT( P**2 + Q**2 )  in units of power,  while  "P.F."  is the
associated power factor.
              Node                Source  node  voltage             Injected  source  current              Injected  source  power
              name         Rectangular            Polar          Rectangular            Polar            P  and  Q    MVA and P.F.

              F1A          169.705627       169.705627          4.242640675      4.242640675      359.99999794329  359.99999794329
                                  0.0              0.0                  0.0              0.0                  0.0        1.0000000

              F1B         -84.8528135       169.705627        -2.1213203375      4.242640675      359.99999794329  359.99999794329
                      -146.9693841472     -120.0000000      -3.674234603679     -120.0000000      .5245803791E-14        1.0000000

              F1C         -84.8528135       169.705627        -2.1213203375      4.242640675      359.99999794329  359.99999794329
                      146.96938414717      120.0000000      3.6742346036792      120.0000000      .1910971381E-13        1.0000000


Zero-frequency (dc) steady-state solution for TACS follows.
   (Name)      TACS value   (Name)    TACS value     (Name)    TACS value     (Name)    TACS value     (Name)    TACS value
           0.00000000E+00   TIMEX   0.00000000E+00   ISTEP   0.00000000E+00   DELTAT  8.00000000E-05   FREQHZ  6.00000000E+01
   OMEGAR  3.76991118E+02   ZERO    0.00000000E+00   PLUS1   1.00000000E+00   MINUS1 -1.00000000E+00   UNITY   1.00000000E+00
   INFNTY  1.00000000E+19   PI      3.14159265E+00   XX0002  0.00000000E+00   XX0003  0.00000000E+00   XX0004  0.00000000E+00
Card of names for time-step loop output.          |  F2A   F2B   F2C
Blank card ending requests for output variables.  |BLANK OUTPUT

Column headings for the  3   EMTP output variables follow.  These are divided among the 5 possible classes as follows ....
  First  3     output variables are electric-network voltage differences (upper voltage minus lower voltage);
   Step      Time      F2A        F2B        F2C
 
 ***      Phasor I(0) =  4.2426407E+00                     Switch  "F2A   "  to  "X0001A"  closed in the steady-state.
 ***      Phasor I(0) = -2.1213203E+00                     Switch  "F2B   "  to  "X0001B"  closed in the steady-state.
 ***      Phasor I(0) = -2.1213203E+00                     Switch  "F2C   "  to  "X0001C"  closed in the steady-state.
      0       0.0  84.8528135 -42.426407 -42.426407
      1     .8E-4  84.8142261 -40.191203 -44.623023
      2    .16E-3  112.931332 -50.559259 -62.372072
      3    .24E-3  112.674317 -47.484264 -65.190052
      4    .32E-3  112.314822 -44.366081 -67.948741
      5     .4E-3  111.853176 -41.207547  -70.64563
      6    .48E-3  111.289798 -38.011533 -73.278265
      7    .56E-3    110.6252 -34.780948 -75.844253
      8    .64E-3  109.859987 -31.518729 -78.341259
      9    .72E-3  108.994855 -28.227843 -80.767013
     10     .8E-3  108.030591 -24.911283 -83.119308
     11    .88E-3  106.968071 -21.572067 -85.396005
     12    .96E-3  105.808262  -18.21323 -87.595033
     13    .00104   104.55222 -14.837828 -89.714392
     14    .00112  103.201085 -11.448931 -91.752155
     15     .0012  101.756088 -8.0496207 -93.706467
     16    .00128  100.218542 -4.6429894 -95.575553
     17    .00136  98.5898464 -1.2321352 -97.357711
     18    .00144  96.8714816 2.17983966 -99.051321
     19    .00152  95.0650109 5.58983191 -100.65484
     20     .0016  93.1720772 8.99474012 -102.16682
     21    .00168  91.1944023 12.3914675 -103.58587
     22    .00176  89.1337848 15.7769247 -104.91071
     23    .00184  86.9920988 19.1480325 -106.14013
     24    .00192  84.7712924 22.5017249 -107.27302
     25      .002  82.4733853 25.8349517 -108.30834
     26    .00208  80.1004675 29.1446813 -109.24515
     27    .00216  77.6546973 32.4279034  -110.0826
     28    .00224   75.138299 35.6816318 -110.81993
     29    .00232  72.5535614 38.9029073 -111.45647
     30     .0024  69.9028354 42.0888001 -111.99164
     31    .00248  67.1885317 45.2364125 -112.42494
     32    .00256  64.4131192 48.3428818   -112.756
     33    .00264   61.579122 51.4053826  -112.9845
     34    .00272  58.6891178 54.4211294 -113.11025
     35     .0028   55.745735 57.3873795 -113.13311
     36    .00288  52.7516506  60.301435 -113.05309
     37    .00296   49.709588 63.1606455 -112.87023
     38    .00304  46.6223138 65.9624105 -112.58472
     39    .00312  43.4926359 68.7041818 -112.19682
     40     .0032  40.3234009 71.3834657 -111.70687
     41    .00328  37.1174912 73.9978254 -111.11532
     42    .00336  33.8778226  76.544883 -110.42271
     43    .00344  30.6073417  79.022322 -109.62966
     44    .00352   27.309023  81.427889 -108.73691
     45     .0036  23.9858663 83.7593963 -107.74526
     46    .00368  20.6408942 86.0147233 -106.65562
     47    .00376  17.2771489 88.1918187 -105.46897
     48    .00384  13.8976898 90.2887024 -104.18639
     49    .00392  10.5055906 92.3034673 -102.80906
     50      .004  7.10393632 94.2342809 -101.33822
     51    .00408  3.69582097 96.0793872 -99.775208
     52    .00416  .284344208 97.8371079 -98.121452
     53    .00424  -3.1273912 99.5058444 -96.378453
     54    .00432  -6.5362821 101.084079 -94.547797
     55     .0044  -9.9392283 102.570376 -92.631148
     56    .00448  -13.333135 103.963384  -90.63025
     57    .00456  -16.714914 105.261836 -88.546922
     58    .00464  -20.081491 106.464551  -86.38306
     59    .00472  -23.429804 107.570435 -84.140631
     60     .0048  -26.756807 108.578482 -81.821675
     61    .00488  -30.059474 109.487775 -79.428301
     62    .00496  -33.334802 110.297488 -76.962686
     63    .00504  -36.579812 111.006884 -74.427072
     64    .00512  -39.791551 111.615317 -71.823766
     65     .0052    -42.9671 112.122235 -69.155135
     66    .00528  -46.103569 112.527176 -66.423607
     67    .00536  -49.198107 112.829772 -63.631665
     68    .00544  -52.247898 113.029747  -60.78185
     69    .00552  -55.250169 113.126921 -57.876752
     70     .0056  -58.202189 113.121204 -54.919015
     71    .00568  -61.101274 113.012602 -51.911328
     72    .00576  -63.944786 112.801213 -48.856428
     73    .00584  -66.730139  112.48723 -45.757091
     74    .00592  -69.454801 112.070939 -42.616138
     75      .006  -72.116292 111.552717 -39.436425
     76    .00608  -74.712192 110.933037 -36.220844
     77    .00616  -77.240141 110.212461  -32.97232
     78    .00624  -79.697839 109.391646 -29.693807
     79    .00632  -82.083051 108.471337 -26.388287
     80     .0064  -84.393607 107.452373 -23.058766
     81    .00648  -86.627405 106.335678 -19.708273
     82    .00656  -88.782415 105.122271 -16.339855
     83    .00664  -90.856676 103.813253 -12.956576
     84    .00672  -92.848302 102.409815  -9.561513
     85     .0068  -94.755481 100.913234 -6.1577534
     86    .00688  -96.576478 99.3248714 -2.7483932
     87    .00696  -98.309638 97.6461713 .663466714
     88    .00704  -99.953384 95.8786607 4.07472318
     89    .00712  -101.50622 94.0239471 7.48227362
